T2978 5165:319.307   SEGGER J-Link V6.54 Log File
T2978 5165:319.356   DLL Compiled: Oct 28 2019 10:33:23
T2978 5165:319.370   Logging started @ 2020-02-15 23:42
T2978 5165:319.391 JLINK_SetWarnOutHandler(...)
T2978 5165:319.401 - 0.013ms
T2978 5165:319.411 JLINK_OpenEx(...)
T2978 5165:323.846   Firmware: J-Link STLink V21 compiled Jun 26 2017 10:35:16
T2978 5165:339.711   Hardware: V1.00
T2978 5165:339.732   S/N: 779102837
T2978 5165:339.740   OEM: SEGGER
T2978 5165:339.748   Feature(s): None
T2978 5166:598.035   TELNET listener socket opened on port 19021
T2978 5166:629.337   WEBSRV Starting webserver
T2978 5166:629.626   WEBSRV Webserver running on local port 19081
T2978 5166:629.647 - 1310.243ms returns "O.K."
T2978 5166:630.944 JLINK_GetEmuCaps()
T2978 5166:630.977 - 0.036ms returns 0x98EA5A33
T2978 5166:630.992 JLINK_TIF_GetAvailable(...)
T2978 5166:631.291 - 0.314ms
T2978 5166:631.352 JLINK_SetErrorOutHandler(...)
T2978 5166:631.382 - 0.033ms
T2978 5166:631.431 JLINK_ExecCommand("ProjectFile = "E:\Workspace\Keil_Workspace\Custom bootloader\MDK-ARM\JLinkSettings.ini"", ...). 
T2978 5166:634.266 - 2.846ms returns 0x00
T2978 5166:639.182 JLINK_ExecCommand("Device = STM32F407VGTx", ...). 
T2978 5166:642.389   Device "STM32F407VG" selected.
T2978 5166:643.506 - 4.315ms returns 0x00
T2978 5166:643.522 JLINK_ExecCommand("DisableConnectionTimeout", ...). 
T2978 5166:643.534 - 0.005ms returns 0x01
T2978 5166:643.545 JLINK_GetHardwareVersion()
T2978 5166:643.551 - 0.008ms returns 0x2710
T2978 5166:643.559 JLINK_GetDLLVersion()  returns 65400
T2978 5166:643.570 JLINK_GetFirmwareString(...)
T2978 5166:643.576 - 0.008ms
T2978 5166:654.789 JLINK_GetDLLVersion()  returns 65400
T2978 5166:654.809 JLINK_GetCompileDateTime()
T2978 5166:654.814 - 0.007ms
T2978 5166:657.044 JLINK_GetFirmwareString(...)
T2978 5166:657.054 - 0.012ms
T2978 5166:659.340 JLINK_GetHardwareVersion()
T2978 5166:659.349 - 0.012ms returns 0x2710
T2978 5166:667.256 JLINK_TIF_Select(JLINKARM_TIF_SWD)
T2978 5166:668.909 - 1.662ms returns 0x00
T2978 5166:668.946 JLINK_SetSpeed(5000)
T2978 5166:669.183 - 0.243ms
T2978 5166:669.210 JLINK_GetId()
T2978 5166:672.808   Found SW-DP with ID 0x4BA01477
T2978 5166:687.536   Found SW-DP with ID 0x4BA01477
T2978 5166:692.945   Scanning AP map to find all available APs
T2978 5166:699.203   AP[1]: Stopped AP scan as end of AP map has been reached
T2978 5166:701.515   AP[0]: AHB-AP (IDR: 0x24770011)
T2978 5166:703.663   Iterating through AP map to find AHB-AP to use
T2978 5166:711.647   AP[0]: Core found
T2978 5166:714.034   AP[0]: AHB-AP ROM base: 0xE00FF000
T2978 5166:719.695   CPUID register: 0x410FC241. Implementer code: 0x41 (ARM)
T2978 5166:721.960   Found Cortex-M4 r0p1, Little endian.
T2978 5166:824.423    -- Max. mem block: 0x00002FA8
T2978 5166:824.511    -- CPU_ReadMem(4 bytes @ 0xE000EDF0)
T2978 5166:825.909    -- CPU_ReadMem(4 bytes @ 0xE0002000)
T2978 5166:840.149   FPUnit: 6 code (BP) slots and 2 literal slots
T2978 5166:840.222    -- CPU_ReadMem(4 bytes @ 0xE000EDFC)
T2978 5166:841.135    -- CPU_ReadMem(4 bytes @ 0xE0001000)
T2978 5166:842.041    -- CPU_WriteMem(4 bytes @ 0xE0001000)
T2978 5166:842.975    -- CPU_ReadMem(4 bytes @ 0xE000ED88)
T2978 5166:843.908    -- CPU_WriteMem(4 bytes @ 0xE000ED88)
T2978 5166:844.836    -- CPU_ReadMem(4 bytes @ 0xE000ED88)
T2978 5166:845.771    -- CPU_WriteMem(4 bytes @ 0xE000ED88)
T2978 5166:853.499   CoreSight components:
T2978 5166:858.374   ROMTbl[0] @ E00FF000
T2978 5166:858.400    -- CPU_ReadMem(16 bytes @ 0xE00FF000)
T2978 5166:859.139    -- CPU_ReadMem(16 bytes @ 0xE000EFF0)
T2978 5166:859.966    -- CPU_ReadMem(16 bytes @ 0xE000EFE0)
T2978 5166:864.949   ROMTbl[0][0]: E000E000, CID: B105E00D, PID: 000BB00C SCS-M7
T2978 5166:864.988    -- CPU_ReadMem(16 bytes @ 0xE0001FF0)
T2978 5166:865.632    -- CPU_ReadMem(16 bytes @ 0xE0001FE0)
T2978 5166:870.611   ROMTbl[0][1]: E0001000, CID: B105E00D, PID: 003BB002 DWT
T2978 5166:870.631    -- CPU_ReadMem(16 bytes @ 0xE0002FF0)
T2978 5166:871.481    -- CPU_ReadMem(16 bytes @ 0xE0002FE0)
T2978 5166:875.134   ROMTbl[0][2]: E0002000, CID: B105E00D, PID: 002BB003 FPB
T2978 5166:875.151    -- CPU_ReadMem(16 bytes @ 0xE0000FF0)
T2978 5166:875.997    -- CPU_ReadMem(16 bytes @ 0xE0000FE0)
T2978 5166:879.691   ROMTbl[0][3]: E0000000, CID: B105E00D, PID: 003BB001 ITM
T2978 5166:879.713    -- CPU_ReadMem(16 bytes @ 0xE00FF010)
T2978 5166:880.288    -- CPU_ReadMem(16 bytes @ 0xE0040FF0)
T2978 5166:881.048    -- CPU_ReadMem(16 bytes @ 0xE0040FE0)
T2978 5166:884.786   ROMTbl[0][4]: E0040000, CID: B105900D, PID: 000BB9A1 TPIU
T2978 5166:884.803    -- CPU_ReadMem(16 bytes @ 0xE0041FF0)
T2978 5166:885.661    -- CPU_ReadMem(16 bytes @ 0xE0041FE0)
T2978 5166:889.639   ROMTbl[0][5]: E0041000, CID: B105900D, PID: 000BB925 ETM
T2978 5166:890.414 - 221.211ms   returns 0x2BA01477
T2978 5166:890.448 JLINK_GetDLLVersion()  returns 65400
T2978 5166:890.460 JLINK_CORE_GetFound()
T2978 5166:890.466 - 0.009ms returns 0xE0000FF
T2978 5166:890.476 JLINK_GetDebugInfo(0x100 = JLINKARM_ROM_TABLE_ADDR_INDEX)
T2978 5166:890.483    -- Value=0xE00FF000
T2978 5166:890.491 - 0.018ms returns 0x00
T2978 5166:892.979 JLINK_GetDebugInfo(0x100 = JLINKARM_ROM_TABLE_ADDR_INDEX)
T2978 5166:892.989    -- Value=0xE00FF000
T2978 5166:892.997 - 0.021ms returns 0x00
T2978 5166:893.005 JLINK_GetDebugInfo(0x101 = JLINKARM_DEBUG_INFO_ETM_ADDR_INDEX)
T2978 5166:893.011    -- Value=0xE0041000
T2978 5166:893.019 - 0.016ms returns 0x00
T2978 5166:893.030   JLINK_ReadMemEx(0xE0041FD0, 0x0020 Bytes, ..., Flags = 0x02000004)
T2978 5166:893.045    -- CPU_ReadMem(32 bytes @ 0xE0041FD0)
T2978 5166:894.222    - Data: 04 00 00 00 00 00 00 00 00 00 00 00 00 00 00 00 ...
T2978 5166:894.244 - 1.217ms returns 0x20
T2978 5166:894.275 JLINK_GetDebugInfo(0x102 = JLINKARM_DEBUG_INFO_MTB_ADDR_INDEX)
T2978 5166:894.283    -- Value=0x00000000
T2978 5166:894.292 - 0.019ms returns 0x00
T2978 5166:894.300 JLINK_GetDebugInfo(0x103 = JLINKARM_DEBUG_INFO_TPIU_ADDR_INDEX)
T2978 5166:894.306    -- Value=0xE0040000
T2978 5166:894.314 - 0.017ms returns 0x00
T2978 5166:894.322 JLINK_GetDebugInfo(0x104 = JLINKARM_DEBUG_INFO_ITM_ADDR_INDEX)
T2978 5166:894.329    -- Value=0xE0000000
T2978 5166:894.337 - 0.017ms returns 0x00
T2978 5166:894.344 JLINK_GetDebugInfo(0x105 = JLINKARM_DEBUG_INFO_DWT_ADDR_INDEX)
T2978 5166:894.350    -- Value=0xE0001000
T2978 5166:894.358 - 0.016ms returns 0x00
T2978 5166:894.365 JLINK_GetDebugInfo(0x106 = JLINKARM_DEBUG_INFO_FPB_ADDR_INDEX)
T2978 5166:894.371    -- Value=0xE0002000
T2978 5166:894.379 - 0.016ms returns 0x00
T2978 5166:894.386 JLINK_GetDebugInfo(0x107 = JLINKARM_DEBUG_INFO_NVIC_ADDR_INDEX)
T2978 5166:894.392    -- Value=0xE000E000
T2978 5166:894.400 - 0.016ms returns 0x00
T2978 5166:894.407 JLINK_GetDebugInfo(0x10C = JLINKARM_DEBUG_INFO_DBG_ADDR_INDEX)
T2978 5166:894.413    -- Value=0xE000EDF0
T2978 5166:894.421 - 0.016ms returns 0x00
T2978 5166:894.428 JLINK_GetDebugInfo(0x01 = Unknown)
T2978 5166:894.434    -- Value=0x00000001
T2978 5166:894.442 - 0.016ms returns 0x00
T2978 5166:894.454   JLINK_ReadMemU32(0xE000ED00, 0x0001 Items, ...)
T2978 5166:894.480    -- CPU_ReadMem(4 bytes @ 0xE000ED00)
T2978 5166:895.071    - Data: 41 C2 0F 41
T2978 5166:895.092    - CPUID
T2978 5166:895.100 - 0.650ms returns 1
T2978 5166:895.131 JLINK_GetDebugInfo(0x10F = JLINKARM_DEBUG_INFO_HAS_CORTEX_M_SECURITY_EXT_INDEX)
T2978 5166:895.140    -- Value=0x00000000
T2978 5166:895.148 - 0.019ms returns 0x00
T2978 5166:895.162 JLINK_SetResetType(JLINKARM_CM3_RESET_TYPE_NORMAL)
T2978 5166:895.169 - 0.010ms returns JLINKARM_CM3_RESET_TYPE_NORMAL
T2978 5166:895.178 JLINK_Reset()
T2978 5166:895.318    -- CPU is running
T2978 5166:895.335    -- CPU_WriteMem(4 bytes @ 0xE000EDF0)
T2978 5166:896.437    -- CPU is running
T2978 5166:896.465    -- CPU_WriteMem(4 bytes @ 0xE000EDFC)
T2978 5166:899.892   Reset: Halt core after reset via DEMCR.VC_CORERESET.
T2978 5166:903.025   Reset: Reset device via AIRCR.SYSRESETREQ.
T2978 5166:903.041    -- CPU is running
T2978 5166:903.051    -- CPU_WriteMem(4 bytes @ 0xE000ED0C)
T2978 5166:957.251    -- CPU_ReadMem(4 bytes @ 0xE000EDF0)
T2978 5166:957.880    -- CPU_ReadMem(4 bytes @ 0xE000EDF0)
T2978 5166:958.650    -- CPU is running
T2978 5166:958.684    -- CPU_WriteMem(4 bytes @ 0xE000EDF0)
T2978 5166:959.451    -- CPU is running
T2978 5166:959.485    -- CPU_WriteMem(4 bytes @ 0xE000EDFC)
T2978 5166:965.594    -- CPU_ReadMem(4 bytes @ 0xE000EDF0)
T2978 5166:970.432    -- CPU_WriteMem(4 bytes @ 0xE0002000)
T2978 5166:971.298    -- CPU_ReadMem(4 bytes @ 0xE000EDFC)
T2978 5166:972.171    -- CPU_ReadMem(4 bytes @ 0xE0001000)
T2978 5166:972.932 - 77.777ms
T2978 5166:973.045 JLINK_Halt()
T2978 5166:973.064 - 0.026ms returns 0x00
T2978 5166:973.104   JLINK_ReadMemU32(0xE000EDF0, 0x0001 Items, ...)
T2978 5166:973.142    -- CPU_ReadMem(4 bytes @ 0xE000EDF0)
T2978 5166:973.986    - Data: 03 00 03 00
T2978 5166:974.048    - DHCSR
T2978 5166:974.070 - 0.976ms returns 1
T2978 5166:974.165   JLINK_WriteU32(0xE000EDF0, 0xA05F0003)
T2978 5166:974.194    - DHCSR
T2978 5166:974.236    -- CPU_WriteMem(4 bytes @ 0xE000EDF0)
T2978 5166:975.157 - 1.027ms returns 0
T2978 5166:975.270   JLINK_WriteU32(0xE000EDFC, 0x01000000)
T2978 5166:975.302    - DEMCR
T2978 5166:975.342    -- CPU_WriteMem(4 bytes @ 0xE000EDFC)
T2978 5166:976.093 - 0.853ms returns 0
T2978 5167:002.471 JLINK_GetHWStatus(...)
T2978 5167:002.934 - 0.476ms returns 0x00
T2978 5167:012.881 JLINK_GetNumBPUnits(Type = 0xFFFFFF00)
T2978 5167:012.896 - 0.019ms returns 0x06
T2978 5167:012.906 JLINK_GetNumBPUnits(Type = 0xF0)
T2978 5167:012.913 - 0.010ms returns 0x2000
T2978 5167:012.923 JLINK_GetNumWPUnits()
T2978 5167:012.930 - 0.010ms returns 0x04
T2978 5167:020.626 JLINK_GetSpeed()
T2978 5167:020.639 - 0.016ms returns 0xFA0
T2978 5167:025.265   JLINK_ReadMemU32(0xE000E004, 0x0001 Items, ...)
T2978 5167:025.286    -- CPU_ReadMem(4 bytes @ 0xE000E004)
T2978 5167:025.849    - Data: 02 00 00 00
T2978 5167:025.861 - 0.599ms returns 1
T2978 5167:025.904   JLINK_ReadMemU32(0xE000E004, 0x0001 Items, ...)
T2978 5167:025.917    -- CPU_ReadMem(4 bytes @ 0xE000E004)
T2978 5167:026.481    - Data: 02 00 00 00
T2978 5167:026.497 - 0.597ms returns 1
T2978 5167:026.542 JLINK_WriteMemEx(0xE0001000, 0x001C Bytes, ..., Flags = 0x02000004)
T2978 5167:026.550    - Data: 01 00 00 00 00 00 00 00 00 00 00 00 00 00 00 00 ...
T2978 5167:027.049    -- CPU_WriteMem(28 bytes @ 0xE0001000)
T2978 5167:027.713 - 1.182ms returns 0x1C
T2978 5167:027.769 JLINK_Halt()
T2978 5167:027.794 - 0.027ms returns 0x00
T2978 5167:027.804 JLINK_IsHalted()
T2978 5167:027.810 - 0.009ms returns TRUE
T2978 5167:030.455 JLINK_WriteMem(0x20000000, 0x0180 Bytes, ...)
T2978 5167:030.465    - Data: 00 BE 0A E0 0D 78 2D 06 68 40 08 24 40 00 00 D3 ...
T2978 5167:030.928    -- CPU_WriteMem(384 bytes @ 0x20000000)
T2978 5167:034.319 - 3.882ms returns 0x180
T2978 5167:034.423 JLINK_WriteReg(R0, 0x08000000)
T2978 5167:034.435 - 0.014ms returns 0x00
T2978 5167:034.442 JLINK_WriteReg(R1, 0x0A037A00)
T2978 5167:034.447 - 0.008ms returns 0x00
T2978 5167:034.454 JLINK_WriteReg(R2, 0x00000001)
T2978 5167:034.459 - 0.007ms returns 0x00
T2978 5167:034.466 JLINK_WriteReg(R3, 0x00000000)
T2978 5167:034.471 - 0.007ms returns 0x00
T2978 5167:034.478 JLINK_WriteReg(R4, 0x00000000)
T2978 5167:034.483 - 0.007ms returns 0x00
T2978 5167:034.489 JLINK_WriteReg(R5, 0x00000000)
T2978 5167:034.494 - 0.007ms returns 0x00
T2978 5167:034.501 JLINK_WriteReg(R6, 0x00000000)
T2978 5167:034.506 - 0.007ms returns 0x00
T2978 5167:034.513 JLINK_WriteReg(R7, 0x00000000)
T2978 5167:034.518 - 0.007ms returns 0x00
T2978 5167:034.524 JLINK_WriteReg(R8, 0x00000000)
T2978 5167:034.530 - 0.007ms returns 0x00
T2978 5167:034.536 JLINK_WriteReg(R9, 0x2000017C)
T2978 5167:034.541 - 0.007ms returns 0x00
T2978 5167:034.548 JLINK_WriteReg(R10, 0x00000000)
T2978 5167:034.553 - 0.007ms returns 0x00
T2978 5167:034.559 JLINK_WriteReg(R11, 0x00000000)
T2978 5167:034.564 - 0.007ms returns 0x00
T2978 5167:034.571 JLINK_WriteReg(R12, 0x00000000)
T2978 5167:034.576 - 0.007ms returns 0x00
T2978 5167:034.586 JLINK_WriteReg(R13 (SP), 0x20001000)
T2978 5167:034.594 - 0.010ms returns 0x00
T2978 5167:034.600 JLINK_WriteReg(R14, 0x20000001)
T2978 5167:034.605 - 0.007ms returns 0x00
T2978 5167:034.612 JLINK_WriteReg(R15 (PC), 0x20000054)
T2978 5167:034.617 - 0.007ms returns 0x00
T2978 5167:034.624 JLINK_WriteReg(XPSR, 0x01000000)
T2978 5167:034.629 - 0.007ms returns 0x00
T2978 5167:034.636 JLINK_WriteReg(MSP, 0x20001000)
T2978 5167:034.641 - 0.007ms returns 0x00
T2978 5167:034.648 JLINK_WriteReg(PSP, 0x20001000)
T2978 5167:034.653 - 0.007ms returns 0x00
T2978 5167:034.659 JLINK_WriteReg(CFBP, 0x00000000)
T2978 5167:034.664 - 0.007ms returns 0x00
T2978 5167:034.673   JLINK_SetBPEx(Addr = 0x20000000, Type = 0xFFFFFFF2)
T2978 5167:034.685    -- CPU_ReadMem(2 bytes @ 0x20000000)
T2978 5167:035.788 - 1.149ms returns 0x00000001
T2978 5167:035.863 JLINK_Go()
T2978 5167:035.875    -- CPU_WriteMem(2 bytes @ 0x20000000)
T2978 5167:037.000    -- CPU_ReadMem(4 bytes @ 0xE0001000)
T2978 5167:038.168    -- CPU_WriteMem(4 bytes @ 0xE0002008)
T2978 5167:038.191    -- CPU_WriteMem(4 bytes @ 0xE000200C)
T2978 5167:038.199    -- CPU_WriteMem(4 bytes @ 0xE0002010)
T2978 5167:038.206    -- CPU_WriteMem(4 bytes @ 0xE0002014)
T2978 5167:038.215    -- CPU_WriteMem(4 bytes @ 0xE0002018)
T2978 5167:038.223    -- CPU_WriteMem(4 bytes @ 0xE000201C)
T2978 5167:040.297    -- CPU_WriteMem(4 bytes @ 0xE0001004)
T2978 5167:045.784 - 9.939ms
T2978 5167:045.829 JLINK_IsHalted()
T2978 5167:049.153    -- CPU_ReadMem(2 bytes @ 0x20000000)
T2978 5167:049.754 - 3.937ms returns TRUE
T2978 5167:049.792 JLINK_ReadReg(R15 (PC))
T2978 5167:049.801 - 0.012ms returns 0x20000000
T2978 5167:049.809 JLINK_ClrBPEx(BPHandle = 0x00000001)
T2978 5167:049.816 - 0.008ms returns 0x00
T2978 5167:049.823 JLINK_ReadReg(R0)
T2978 5167:049.828 - 0.008ms returns 0x00000000
T2978 5167:050.177 JLINK_WriteReg(R0, 0x08000000)
T2978 5167:050.196 - 0.022ms returns 0x00
T2978 5167:050.203 JLINK_WriteReg(R1, 0x00004000)
T2978 5167:050.209 - 0.008ms returns 0x00
T2978 5167:050.215 JLINK_WriteReg(R2, 0x000000FF)
T2978 5167:050.220 - 0.007ms returns 0x00
T2978 5167:050.227 JLINK_WriteReg(R3, 0x00000000)
T2978 5167:050.232 - 0.007ms returns 0x00
T2978 5167:050.239 JLINK_WriteReg(R4, 0x00000000)
T2978 5167:050.244 - 0.007ms returns 0x00
T2978 5167:050.250 JLINK_WriteReg(R5, 0x00000000)
T2978 5167:050.256 - 0.007ms returns 0x00
T2978 5167:050.262 JLINK_WriteReg(R6, 0x00000000)
T2978 5167:050.267 - 0.007ms returns 0x00
T2978 5167:050.274 JLINK_WriteReg(R7, 0x00000000)
T2978 5167:050.279 - 0.007ms returns 0x00
T2978 5167:050.285 JLINK_WriteReg(R8, 0x00000000)
T2978 5167:050.291 - 0.007ms returns 0x00
T2978 5167:050.297 JLINK_WriteReg(R9, 0x2000017C)
T2978 5167:050.302 - 0.007ms returns 0x00
T2978 5167:050.309 JLINK_WriteReg(R10, 0x00000000)
T2978 5167:050.314 - 0.007ms returns 0x00
T2978 5167:050.320 JLINK_WriteReg(R11, 0x00000000)
T2978 5167:050.326 - 0.007ms returns 0x00
T2978 5167:050.332 JLINK_WriteReg(R12, 0x00000000)
T2978 5167:050.337 - 0.007ms returns 0x00
T2978 5167:050.344 JLINK_WriteReg(R13 (SP), 0x20001000)
T2978 5167:050.349 - 0.008ms returns 0x00
T2978 5167:050.356 JLINK_WriteReg(R14, 0x20000001)
T2978 5167:050.361 - 0.007ms returns 0x00
T2978 5167:050.368 JLINK_WriteReg(R15 (PC), 0x20000020)
T2978 5167:050.373 - 0.007ms returns 0x00
T2978 5167:050.379 JLINK_WriteReg(XPSR, 0x01000000)
T2978 5167:050.385 - 0.007ms returns 0x00
T2978 5167:050.391 JLINK_WriteReg(MSP, 0x20001000)
T2978 5167:050.396 - 0.007ms returns 0x00
T2978 5167:050.403 JLINK_WriteReg(PSP, 0x20001000)
T2978 5167:050.408 - 0.007ms returns 0x00
T2978 5167:050.414 JLINK_WriteReg(CFBP, 0x00000000)
T2978 5167:050.419 - 0.007ms returns 0x00
T2978 5167:050.427   JLINK_SetBPEx(Addr = 0x20000000, Type = 0xFFFFFFF2)
T2978 5167:050.437 - 0.013ms returns 0x00000002
T2978 5167:050.444 JLINK_Go()
T2978 5167:050.456    -- CPU_ReadMem(4 bytes @ 0xE0001000)
T2978 5167:055.225 - 4.797ms
T2978 5167:055.269 JLINK_IsHalted()
T2978 5167:058.976    -- CPU_ReadMem(2 bytes @ 0x20000000)
T2978 5167:060.209 - 4.957ms returns TRUE
T2978 5167:060.281 JLINK_ReadReg(R15 (PC))
T2978 5167:060.292 - 0.014ms returns 0x20000000
T2978 5167:060.323 JLINK_ClrBPEx(BPHandle = 0x00000002)
T2978 5167:060.354 - 0.036ms returns 0x00
T2978 5167:060.368 JLINK_ReadReg(R0)
T2978 5167:060.374 - 0.008ms returns 0x00000001
T2978 5167:060.386 JLINK_WriteReg(R0, 0x08000000)
T2978 5167:060.392 - 0.009ms returns 0x00
T2978 5167:060.400 JLINK_WriteReg(R1, 0x00004000)
T2978 5167:060.405 - 0.008ms returns 0x00
T2978 5167:060.412 JLINK_WriteReg(R2, 0x000000FF)
T2978 5167:060.418 - 0.008ms returns 0x00
T2978 5167:060.425 JLINK_WriteReg(R3, 0x00000000)
T2978 5167:060.431 - 0.008ms returns 0x00
T2978 5167:060.438 JLINK_WriteReg(R4, 0x00000000)
T2978 5167:060.457 - 0.021ms returns 0x00
T2978 5167:060.464 JLINK_WriteReg(R5, 0x00000000)
T2978 5167:060.469 - 0.007ms returns 0x00
T2978 5167:060.475 JLINK_WriteReg(R6, 0x00000000)
T2978 5167:060.481 - 0.008ms returns 0x00
T2978 5167:060.489 JLINK_WriteReg(R7, 0x00000000)
T2978 5167:060.494 - 0.007ms returns 0x00
T2978 5167:060.502 JLINK_WriteReg(R8, 0x00000000)
T2978 5167:060.507 - 0.007ms returns 0x00
T2978 5167:060.514 JLINK_WriteReg(R9, 0x2000017C)
T2978 5167:060.519 - 0.007ms returns 0x00
T2978 5167:060.526 JLINK_WriteReg(R10, 0x00000000)
T2978 5167:060.532 - 0.008ms returns 0x00
T2978 5167:060.538 JLINK_WriteReg(R11, 0x00000000)
T2978 5167:060.544 - 0.007ms returns 0x00
T2978 5167:060.552 JLINK_WriteReg(R12, 0x00000000)
T2978 5167:060.557 - 0.007ms returns 0x00
T2978 5167:060.565 JLINK_WriteReg(R13 (SP), 0x20001000)
T2978 5167:060.571 - 0.008ms returns 0x00
T2978 5167:060.577 JLINK_WriteReg(R14, 0x20000001)
T2978 5167:060.583 - 0.007ms returns 0x00
T2978 5167:060.589 JLINK_WriteReg(R15 (PC), 0x200000BC)
T2978 5167:060.594 - 0.007ms returns 0x00
T2978 5167:060.601 JLINK_WriteReg(XPSR, 0x01000000)
T2978 5167:060.606 - 0.008ms returns 0x00
T2978 5167:060.614 JLINK_WriteReg(MSP, 0x20001000)
T2978 5167:060.619 - 0.007ms returns 0x00
T2978 5167:060.627 JLINK_WriteReg(PSP, 0x20001000)
T2978 5167:060.632 - 0.007ms returns 0x00
T2978 5167:060.639 JLINK_WriteReg(CFBP, 0x00000000)
T2978 5167:060.644 - 0.007ms returns 0x00
T2978 5167:060.651   JLINK_SetBPEx(Addr = 0x20000000, Type = 0xFFFFFFF2)
T2978 5167:060.659 - 0.011ms returns 0x00000003
T2978 5167:060.668 JLINK_Go()
T2978 5167:060.680    -- CPU_ReadMem(4 bytes @ 0xE0001000)
T2978 5167:065.729 - 5.077ms
T2978 5167:065.776 JLINK_IsHalted()
T2978 5167:066.875 - 1.116ms returns FALSE
T2978 5167:228.739 JLINK_IsHalted()
T2978 5167:230.075 - 1.368ms returns FALSE
T2978 5167:231.689 JLINK_IsHalted()
T2978 5167:232.563 - 0.913ms returns FALSE
T2978 5167:234.644 JLINK_IsHalted()
T2978 5167:235.396 - 0.778ms returns FALSE
T2978 5167:237.670 JLINK_IsHalted()
T2978 5167:238.583 - 0.946ms returns FALSE
T2978 5167:240.714 JLINK_IsHalted()
T2978 5167:241.566 - 0.897ms returns FALSE
T2978 5167:243.696 JLINK_IsHalted()
T2978 5167:244.575 - 0.903ms returns FALSE
T2978 5167:246.531 JLINK_IsHalted()
T2978 5167:247.227 - 0.719ms returns FALSE
T2978 5167:248.483 JLINK_IsHalted()
T2978 5167:249.369 - 0.909ms returns FALSE
T2978 5167:250.659 JLINK_IsHalted()
T2978 5167:251.686 - 1.039ms returns FALSE
T2978 5167:252.949 JLINK_IsHalted()
T2978 5167:253.838 - 0.910ms returns FALSE
T2978 5167:256.137 JLINK_IsHalted()
T2978 5167:256.736 - 0.618ms returns FALSE
T2978 5167:257.919 JLINK_IsHalted()
T2978 5167:258.486 - 0.576ms returns FALSE
T2978 5167:259.923 JLINK_IsHalted()
T2978 5167:260.469 - 0.555ms returns FALSE
T2978 5167:261.903 JLINK_IsHalted()
T2978 5167:262.425 - 0.531ms returns FALSE
T2978 5167:263.898 JLINK_IsHalted()
T2978 5167:264.442 - 0.553ms returns FALSE
T2978 5167:265.889 JLINK_IsHalted()
T2978 5167:266.390 - 0.510ms returns FALSE
T2978 5167:267.885 JLINK_IsHalted()
T2978 5167:268.437 - 0.561ms returns FALSE
T2978 5167:269.875 JLINK_IsHalted()
T2978 5167:270.341 - 0.475ms returns FALSE
T2978 5167:271.857 JLINK_IsHalted()
T2978 5167:272.332 - 0.484ms returns FALSE
T2978 5167:273.880 JLINK_IsHalted()
T2978 5167:274.403 - 0.531ms returns FALSE
T2978 5167:275.849 JLINK_IsHalted()
T2978 5167:276.359 - 0.518ms returns FALSE
T2978 5167:277.815 JLINK_IsHalted()
T2978 5167:278.208 - 0.399ms returns FALSE
T2978 5167:279.850 JLINK_IsHalted()
T2978 5167:280.243 - 0.399ms returns FALSE
T2978 5167:282.802 JLINK_IsHalted()
T2978 5167:283.245 - 0.449ms returns FALSE
T2978 5167:284.803 JLINK_IsHalted()
T2978 5167:285.186 - 0.389ms returns FALSE
T2978 5167:287.547 JLINK_IsHalted()
T2978 5167:287.947 - 0.405ms returns FALSE
T2978 5167:289.246 JLINK_IsHalted()
T2978 5167:290.180 - 0.939ms returns FALSE
T2978 5167:291.599 JLINK_IsHalted()
T2978 5167:292.586 - 0.993ms returns FALSE
T2978 5167:294.541 JLINK_IsHalted()
T2978 5167:295.193 - 0.665ms returns FALSE
T2978 5167:296.603 JLINK_IsHalted()
T2978 5167:297.259 - 0.670ms returns FALSE
T2978 5167:298.665 JLINK_IsHalted()
T2978 5167:299.238 - 0.583ms returns FALSE
T2978 5167:300.555 JLINK_IsHalted()
T2978 5167:301.854 - 1.316ms returns FALSE
T2978 5167:303.020 JLINK_IsHalted()
T2978 5167:304.193 - 1.192ms returns FALSE
T2978 5167:308.391 JLINK_IsHalted()
T2978 5167:309.640 - 1.266ms returns FALSE
T2978 5167:311.540 JLINK_IsHalted()
T2978 5167:312.193 - 0.669ms returns FALSE
T2978 5167:313.394 JLINK_IsHalted()
T2978 5167:313.970 - 0.590ms returns FALSE
T2978 5167:315.708 JLINK_IsHalted()
T2978 5167:316.791 - 1.093ms returns FALSE
T2978 5167:318.691 JLINK_IsHalted()
T2978 5167:319.719 - 1.037ms returns FALSE
T2978 5167:320.957 JLINK_IsHalted()
T2978 5167:322.285 - 1.346ms returns FALSE
T2978 5167:323.684 JLINK_IsHalted()
T2978 5167:324.264 - 0.614ms returns FALSE
T2978 5167:325.714 JLINK_IsHalted()
T2978 5167:326.912 - 1.225ms returns FALSE
T2978 5167:328.783 JLINK_IsHalted()
T2978 5167:329.373 - 0.605ms returns FALSE
T2978 5167:331.687 JLINK_IsHalted()
T2978 5167:332.349 - 0.678ms returns FALSE
T2978 5167:334.218 JLINK_IsHalted()
T2978 5167:334.913 - 0.713ms returns FALSE
T2978 5167:336.948 JLINK_IsHalted()
T2978 5167:338.084 - 1.155ms returns FALSE
T2978 5167:339.890 JLINK_IsHalted()
T2978 5167:340.857 - 0.986ms returns FALSE
T2978 5167:343.319 JLINK_IsHalted()
T2978 5167:344.254 - 0.956ms returns FALSE
T2978 5167:346.237 JLINK_IsHalted()
T2978 5167:346.885 - 0.670ms returns FALSE
T2978 5167:348.236 JLINK_IsHalted()
T2978 5167:349.127 - 0.912ms returns FALSE
T2978 5167:350.919 JLINK_IsHalted()
T2978 5167:351.546 - 0.642ms returns FALSE
T2978 5167:353.194 JLINK_IsHalted()
T2978 5167:354.083 - 0.914ms returns FALSE
T2978 5167:355.360 JLINK_IsHalted()
T2978 5167:356.237 - 0.900ms returns FALSE
T2978 5167:358.367 JLINK_IsHalted()
T2978 5167:359.272 - 0.933ms returns FALSE
T2978 5167:361.524 JLINK_IsHalted()
T2978 5167:362.401 - 0.905ms returns FALSE
T2978 5167:364.488 JLINK_IsHalted()
T2978 5167:365.459 - 1.003ms returns FALSE
T2978 5167:367.451 JLINK_IsHalted()
T2978 5167:368.271 - 0.847ms returns FALSE
T2978 5167:370.501 JLINK_IsHalted()
T2978 5167:371.452 - 0.999ms returns FALSE
T2978 5167:373.630 JLINK_IsHalted()
T2978 5167:374.615 - 1.018ms returns FALSE
T2978 5167:376.349 JLINK_IsHalted()
T2978 5167:377.225 - 0.919ms returns FALSE
T2978 5167:379.339 JLINK_IsHalted()
T2978 5167:380.187 - 0.878ms returns FALSE
T2978 5167:382.369 JLINK_IsHalted()
T2978 5167:383.298 - 0.961ms returns FALSE
T2978 5167:385.329 JLINK_IsHalted()
T2978 5167:386.215 - 0.917ms returns FALSE
T2978 5167:388.368 JLINK_IsHalted()
T2978 5167:389.355 - 1.019ms returns FALSE
T2978 5167:391.311 JLINK_IsHalted()
T2978 5167:392.199 - 0.921ms returns FALSE
T2978 5167:394.288 JLINK_IsHalted()
T2978 5167:395.170 - 0.912ms returns FALSE
T2978 5167:397.109 JLINK_IsHalted()
T2978 5167:397.963 - 0.878ms returns FALSE
T2978 5167:400.304 JLINK_IsHalted()
T2978 5167:401.259 - 0.987ms returns FALSE
T2978 5167:403.248 JLINK_IsHalted()
T2978 5167:407.427    -- CPU_ReadMem(2 bytes @ 0x20000000)
T2978 5167:408.183 - 4.957ms returns TRUE
T2978 5167:408.272 JLINK_ReadReg(R15 (PC))
T2978 5167:408.308 - 0.045ms returns 0x20000000
T2978 5167:408.331 JLINK_ClrBPEx(BPHandle = 0x00000003)
T2978 5167:408.349 - 0.025ms returns 0x00
T2978 5167:408.370 JLINK_ReadReg(R0)
T2978 5167:408.387 - 0.024ms returns 0x00000000
T2978 5167:409.759 JLINK_WriteReg(R0, 0x08004000)
T2978 5167:409.789 - 0.038ms returns 0x00
T2978 5167:409.810 JLINK_WriteReg(R1, 0x00004000)
T2978 5167:409.827 - 0.024ms returns 0x00
T2978 5167:409.847 JLINK_WriteReg(R2, 0x000000FF)
T2978 5167:409.863 - 0.023ms returns 0x00
T2978 5167:409.883 JLINK_WriteReg(R3, 0x00000000)
T2978 5167:409.899 - 0.023ms returns 0x00
T2978 5167:409.919 JLINK_WriteReg(R4, 0x00000000)
T2978 5167:409.935 - 0.023ms returns 0x00
T2978 5167:409.955 JLINK_WriteReg(R5, 0x00000000)
T2978 5167:409.971 - 0.023ms returns 0x00
T2978 5167:409.991 JLINK_WriteReg(R6, 0x00000000)
T2978 5167:410.007 - 0.023ms returns 0x00
T2978 5167:410.027 JLINK_WriteReg(R7, 0x00000000)
T2978 5167:410.046 - 0.027ms returns 0x00
T2978 5167:410.066 JLINK_WriteReg(R8, 0x00000000)
T2978 5167:410.082 - 0.023ms returns 0x00
T2978 5167:410.102 JLINK_WriteReg(R9, 0x2000017C)
T2978 5167:410.117 - 0.023ms returns 0x00
T2978 5167:410.137 JLINK_WriteReg(R10, 0x00000000)
T2978 5167:410.153 - 0.023ms returns 0x00
T2978 5167:410.173 JLINK_WriteReg(R11, 0x00000000)
T2978 5167:410.189 - 0.023ms returns 0x00
T2978 5167:410.209 JLINK_WriteReg(R12, 0x00000000)
T2978 5167:410.225 - 0.023ms returns 0x00
T2978 5167:410.245 JLINK_WriteReg(R13 (SP), 0x20001000)
T2978 5167:410.262 - 0.025ms returns 0x00
T2978 5167:410.282 JLINK_WriteReg(R14, 0x20000001)
T2978 5167:410.298 - 0.023ms returns 0x00
T2978 5167:410.318 JLINK_WriteReg(R15 (PC), 0x20000020)
T2978 5167:410.334 - 0.023ms returns 0x00
T2978 5167:410.354 JLINK_WriteReg(XPSR, 0x01000000)
T2978 5167:410.370 - 0.023ms returns 0x00
T2978 5167:410.390 JLINK_WriteReg(MSP, 0x20001000)
T2978 5167:410.406 - 0.023ms returns 0x00
T2978 5167:410.426 JLINK_WriteReg(PSP, 0x20001000)
T2978 5167:410.441 - 0.023ms returns 0x00
T2978 5167:410.462 JLINK_WriteReg(CFBP, 0x00000000)
T2978 5167:410.477 - 0.023ms returns 0x00
T2978 5167:410.499   JLINK_SetBPEx(Addr = 0x20000000, Type = 0xFFFFFFF2)
T2978 5167:410.524 - 0.034ms returns 0x00000004
T2978 5167:410.545 JLINK_Go()
T2978 5167:410.576    -- CPU_ReadMem(4 bytes @ 0xE0001000)
T2978 5167:414.930 - 4.416ms
T2978 5167:415.035 JLINK_IsHalted()
T2978 5167:415.678 - 0.664ms returns FALSE
T2978 5167:420.192 JLINK_IsHalted()
T2978 5167:421.180 - 1.021ms returns FALSE
T2978 5167:423.342 JLINK_IsHalted()
T2978 5167:424.340 - 1.030ms returns FALSE
T2978 5167:426.379 JLINK_IsHalted()
T2978 5167:427.383 - 1.037ms returns FALSE
T2978 5167:429.345 JLINK_IsHalted()
T2978 5167:433.271    -- CPU_ReadMem(2 bytes @ 0x20000000)
T2978 5167:434.091 - 4.767ms returns TRUE
T2978 5167:434.178 JLINK_ReadReg(R15 (PC))
T2978 5167:434.203 - 0.034ms returns 0x20000000
T2978 5167:434.227 JLINK_ClrBPEx(BPHandle = 0x00000004)
T2978 5167:434.245 - 0.026ms returns 0x00
T2978 5167:434.267 JLINK_ReadReg(R0)
T2978 5167:434.283 - 0.024ms returns 0x00000000
T2978 5167:435.069 JLINK_WriteReg(R0, 0x00000001)
T2978 5167:435.098 - 0.037ms returns 0x00
T2978 5167:435.131 JLINK_WriteReg(R1, 0x00004000)
T2978 5167:435.148 - 0.025ms returns 0x00
T2978 5167:435.169 JLINK_WriteReg(R2, 0x000000FF)
T2978 5167:435.185 - 0.023ms returns 0x00
T2978 5167:435.205 JLINK_WriteReg(R3, 0x00000000)
T2978 5167:435.220 - 0.023ms returns 0x00
T2978 5167:435.240 JLINK_WriteReg(R4, 0x00000000)
T2978 5167:435.256 - 0.023ms returns 0x00
T2978 5167:435.276 JLINK_WriteReg(R5, 0x00000000)
T2978 5167:435.292 - 0.023ms returns 0x00
T2978 5167:435.312 JLINK_WriteReg(R6, 0x00000000)
T2978 5167:435.328 - 0.023ms returns 0x00
T2978 5167:435.348 JLINK_WriteReg(R7, 0x00000000)
T2978 5167:435.363 - 0.023ms returns 0x00
T2978 5167:435.384 JLINK_WriteReg(R8, 0x00000000)
T2978 5167:435.400 - 0.023ms returns 0x00
T2978 5167:435.420 JLINK_WriteReg(R9, 0x2000017C)
T2978 5167:435.435 - 0.023ms returns 0x00
T2978 5167:435.455 JLINK_WriteReg(R10, 0x00000000)
T2978 5167:435.481 - 0.033ms returns 0x00
T2978 5167:435.501 JLINK_WriteReg(R11, 0x00000000)
T2978 5167:435.517 - 0.023ms returns 0x00
T2978 5167:435.537 JLINK_WriteReg(R12, 0x00000000)
T2978 5167:435.553 - 0.023ms returns 0x00
T2978 5167:435.573 JLINK_WriteReg(R13 (SP), 0x20001000)
T2978 5167:435.590 - 0.025ms returns 0x00
T2978 5167:435.610 JLINK_WriteReg(R14, 0x20000001)
T2978 5167:435.626 - 0.023ms returns 0x00
T2978 5167:435.646 JLINK_WriteReg(R15 (PC), 0x20000082)
T2978 5167:435.662 - 0.023ms returns 0x00
T2978 5167:435.682 JLINK_WriteReg(XPSR, 0x01000000)
T2978 5167:435.698 - 0.024ms returns 0x00
T2978 5167:435.718 JLINK_WriteReg(MSP, 0x20001000)
T2978 5167:435.734 - 0.023ms returns 0x00
T2978 5167:435.754 JLINK_WriteReg(PSP, 0x20001000)
T2978 5167:435.769 - 0.023ms returns 0x00
T2978 5167:435.789 JLINK_WriteReg(CFBP, 0x00000000)
T2978 5167:435.805 - 0.023ms returns 0x00
T2978 5167:435.828   JLINK_SetBPEx(Addr = 0x20000000, Type = 0xFFFFFFF2)
T2978 5167:435.852 - 0.033ms returns 0x00000005
T2978 5167:435.873 JLINK_Go()
T2978 5167:435.904    -- CPU_ReadMem(4 bytes @ 0xE0001000)
T2978 5167:440.745 - 4.903ms
T2978 5167:440.846 JLINK_IsHalted()
T2978 5167:444.785    -- CPU_ReadMem(2 bytes @ 0x20000000)
T2978 5167:445.546 - 4.723ms returns TRUE
T2978 5167:445.635 JLINK_ReadReg(R15 (PC))
T2978 5167:445.661 - 0.034ms returns 0x20000000
T2978 5167:445.684 JLINK_ClrBPEx(BPHandle = 0x00000005)
T2978 5167:445.701 - 0.025ms returns 0x00
T2978 5167:445.723 JLINK_ReadReg(R0)
T2978 5167:445.739 - 0.024ms returns 0x00000000
T2978 5167:518.999 JLINK_WriteMem(0x20000000, 0x0180 Bytes, ...)
T2978 5167:519.035    - Data: 00 BE 0A E0 0D 78 2D 06 68 40 08 24 40 00 00 D3 ...
T2978 5167:519.081    -- CPU_WriteMem(384 bytes @ 0x20000000)
T2978 5167:522.500 - 3.528ms returns 0x180
T2978 5167:522.650 JLINK_WriteReg(R0, 0x08000000)
T2978 5167:522.675 - 0.032ms returns 0x00
T2978 5167:522.692 JLINK_WriteReg(R1, 0x0A037A00)
T2978 5167:522.706 - 0.020ms returns 0x00
T2978 5167:522.724 JLINK_WriteReg(R2, 0x00000002)
T2978 5167:522.737 - 0.020ms returns 0x00
T2978 5167:522.754 JLINK_WriteReg(R3, 0x00000000)
T2978 5167:522.768 - 0.020ms returns 0x00
T2978 5167:522.784 JLINK_WriteReg(R4, 0x00000000)
T2978 5167:522.798 - 0.020ms returns 0x00
T2978 5167:522.815 JLINK_WriteReg(R5, 0x00000000)
T2978 5167:522.828 - 0.019ms returns 0x00
T2978 5167:522.845 JLINK_WriteReg(R6, 0x00000000)
T2978 5167:522.858 - 0.019ms returns 0x00
T2978 5167:522.875 JLINK_WriteReg(R7, 0x00000000)
T2978 5167:522.888 - 0.019ms returns 0x00
T2978 5167:522.905 JLINK_WriteReg(R8, 0x00000000)
T2978 5167:522.919 - 0.020ms returns 0x00
T2978 5167:522.935 JLINK_WriteReg(R9, 0x2000017C)
T2978 5167:522.949 - 0.020ms returns 0x00
T2978 5167:522.966 JLINK_WriteReg(R10, 0x00000000)
T2978 5167:522.979 - 0.020ms returns 0x00
T2978 5167:522.996 JLINK_WriteReg(R11, 0x00000000)
T2978 5167:523.009 - 0.019ms returns 0x00
T2978 5167:523.026 JLINK_WriteReg(R12, 0x00000000)
T2978 5167:523.039 - 0.019ms returns 0x00
T2978 5167:523.055 JLINK_WriteReg(R13 (SP), 0x20001000)
T2978 5167:523.069 - 0.021ms returns 0x00
T2978 5167:523.086 JLINK_WriteReg(R14, 0x20000001)
T2978 5167:523.099 - 0.019ms returns 0x00
T2978 5167:523.116 JLINK_WriteReg(R15 (PC), 0x20000054)
T2978 5167:523.129 - 0.020ms returns 0x00
T2978 5167:523.146 JLINK_WriteReg(XPSR, 0x01000000)
T2978 5167:523.159 - 0.019ms returns 0x00
T2978 5167:523.176 JLINK_WriteReg(MSP, 0x20001000)
T2978 5167:523.189 - 0.019ms returns 0x00
T2978 5167:523.206 JLINK_WriteReg(PSP, 0x20001000)
T2978 5167:523.219 - 0.019ms returns 0x00
T2978 5167:523.236 JLINK_WriteReg(CFBP, 0x00000000)
T2978 5167:523.249 - 0.019ms returns 0x00
T2978 5167:523.267   JLINK_SetBPEx(Addr = 0x20000000, Type = 0xFFFFFFF2)
T2978 5167:523.294    -- CPU_ReadMem(2 bytes @ 0x20000000)
T2978 5167:523.998 - 0.749ms returns 0x00000006
T2978 5167:524.066 JLINK_Go()
T2978 5167:524.088    -- CPU_WriteMem(2 bytes @ 0x20000000)
T2978 5167:524.692    -- CPU_ReadMem(4 bytes @ 0xE0001000)
T2978 5167:528.764 - 4.716ms
T2978 5167:528.825 JLINK_IsHalted()
T2978 5167:532.285    -- CPU_ReadMem(2 bytes @ 0x20000000)
T2978 5167:532.828 - 4.014ms returns TRUE
T2978 5167:532.877 JLINK_ReadReg(R15 (PC))
T2978 5167:532.891 - 0.018ms returns 0x20000000
T2978 5167:532.903 JLINK_ClrBPEx(BPHandle = 0x00000006)
T2978 5167:532.913 - 0.014ms returns 0x00
T2978 5167:532.927 JLINK_ReadReg(R0)
T2978 5167:532.936 - 0.013ms returns 0x00000000
T2978 5167:533.351 JLINK_WriteMem(0x20000180, 0x0280 Bytes, ...)
T2978 5167:533.366    - Data: F8 08 00 20 9D 01 00 08 31 37 00 08 ED 33 00 08 ...
T2978 5167:533.394    -- CPU_WriteMem(640 bytes @ 0x20000180)
T2978 5167:537.857 - 4.527ms returns 0x280
T2978 5167:537.919 JLINK_WriteMem(0x20000400, 0x0180 Bytes, ...)
T2978 5167:537.932    - Data: 20 22 01 24 09 E0 21 FA 02 F5 9D 42 05 D3 03 FA ...
T2978 5167:537.960    -- CPU_WriteMem(384 bytes @ 0x20000400)
T2978 5167:540.986 - 3.088ms returns 0x180
T2978 5167:541.054 JLINK_WriteReg(R0, 0x08000000)
T2978 5167:541.070 - 0.021ms returns 0x00
T2978 5167:541.083 JLINK_WriteReg(R1, 0x00000400)
T2978 5167:541.092 - 0.014ms returns 0x00
T2978 5167:541.104 JLINK_WriteReg(R2, 0x20000180)
T2978 5167:541.113 - 0.013ms returns 0x00
T2978 5167:541.124 JLINK_WriteReg(R3, 0x00000000)
T2978 5167:541.133 - 0.013ms returns 0x00
T2978 5167:541.145 JLINK_WriteReg(R4, 0x00000000)
T2978 5167:541.154 - 0.013ms returns 0x00
T2978 5167:541.165 JLINK_WriteReg(R5, 0x00000000)
T2978 5167:541.174 - 0.013ms returns 0x00
T2978 5167:541.185 JLINK_WriteReg(R6, 0x00000000)
T2978 5167:541.194 - 0.013ms returns 0x00
T2978 5167:541.205 JLINK_WriteReg(R7, 0x00000000)
T2978 5167:541.214 - 0.013ms returns 0x00
T2978 5167:541.226 JLINK_WriteReg(R8, 0x00000000)
T2978 5167:541.235 - 0.013ms returns 0x00
T2978 5167:541.246 JLINK_WriteReg(R9, 0x2000017C)
T2978 5167:541.254 - 0.013ms returns 0x00
T2978 5167:541.266 JLINK_WriteReg(R10, 0x00000000)
T2978 5167:541.275 - 0.013ms returns 0x00
T2978 5167:541.286 JLINK_WriteReg(R11, 0x00000000)
T2978 5167:541.294 - 0.013ms returns 0x00
T2978 5167:541.305 JLINK_WriteReg(R12, 0x00000000)
T2978 5167:541.314 - 0.013ms returns 0x00
T2978 5167:541.325 JLINK_WriteReg(R13 (SP), 0x20001000)
T2978 5167:541.335 - 0.014ms returns 0x00
T2978 5167:541.347 JLINK_WriteReg(R14, 0x20000001)
T2978 5167:541.356 - 0.013ms returns 0x00
T2978 5167:541.367 JLINK_WriteReg(R15 (PC), 0x20000108)
T2978 5167:541.376 - 0.013ms returns 0x00
T2978 5167:541.387 JLINK_WriteReg(XPSR, 0x01000000)
T2978 5167:541.396 - 0.013ms returns 0x00
T2978 5167:541.407 JLINK_WriteReg(MSP, 0x20001000)
T2978 5167:541.416 - 0.013ms returns 0x00
T2978 5167:541.427 JLINK_WriteReg(PSP, 0x20001000)
T2978 5167:541.436 - 0.013ms returns 0x00
T2978 5167:541.447 JLINK_WriteReg(CFBP, 0x00000000)
T2978 5167:541.456 - 0.013ms returns 0x00
T2978 5167:541.468   JLINK_SetBPEx(Addr = 0x20000000, Type = 0xFFFFFFF2)
T2978 5167:541.482 - 0.019ms returns 0x00000007
T2978 5167:541.494 JLINK_Go()
T2978 5167:541.514    -- CPU_ReadMem(4 bytes @ 0xE0001000)
T2978 5167:545.863 - 4.391ms
T2978 5167:545.929 JLINK_IsHalted()
T2978 5167:546.615 - 0.713ms returns FALSE
T2978 5167:552.121 JLINK_IsHalted()
T2978 5167:556.323    -- CPU_ReadMem(2 bytes @ 0x20000000)
T2978 5167:557.147 - 5.045ms returns TRUE
T2978 5167:557.208 JLINK_ReadReg(R15 (PC))
T2978 5167:557.224 - 0.020ms returns 0x20000000
T2978 5167:557.237 JLINK_ClrBPEx(BPHandle = 0x00000007)
T2978 5167:557.252 - 0.019ms returns 0x00
T2978 5167:557.264 JLINK_ReadReg(R0)
T2978 5167:557.274 - 0.013ms returns 0x00000000
T2978 5167:558.044 JLINK_WriteMem(0x20000180, 0x0280 Bytes, ...)
T2978 5167:558.064    - Data: 4D B9 00 98 01 22 40 00 00 23 D0 EB 02 02 63 EB ...
T2978 5167:558.088    -- CPU_WriteMem(640 bytes @ 0x20000180)
T2978 5167:562.652 - 4.628ms returns 0x280
T2978 5167:562.719 JLINK_WriteMem(0x20000400, 0x0180 Bytes, ...)
T2978 5167:562.732    - Data: 41 FA 02 F0 43 EA E0 73 06 E0 41 FA 02 F3 D0 40 ...
T2978 5167:562.756    -- CPU_WriteMem(384 bytes @ 0x20000400)
T2978 5167:565.653 - 2.952ms returns 0x180
T2978 5167:565.718 JLINK_WriteReg(R0, 0x08000400)
T2978 5167:565.734 - 0.020ms returns 0x00
T2978 5167:565.746 JLINK_WriteReg(R1, 0x00000400)
T2978 5167:565.756 - 0.014ms returns 0x00
T2978 5167:565.769 JLINK_WriteReg(R2, 0x20000180)
T2978 5167:565.778 - 0.013ms returns 0x00
T2978 5167:565.790 JLINK_WriteReg(R3, 0x00000000)
T2978 5167:565.799 - 0.013ms returns 0x00
T2978 5167:565.810 JLINK_WriteReg(R4, 0x00000000)
T2978 5167:565.820 - 0.014ms returns 0x00
T2978 5167:565.832 JLINK_WriteReg(R5, 0x00000000)
T2978 5167:565.841 - 0.013ms returns 0x00
T2978 5167:565.854 JLINK_WriteReg(R6, 0x00000000)
T2978 5167:565.863 - 0.013ms returns 0x00
T2978 5167:565.874 JLINK_WriteReg(R7, 0x00000000)
T2978 5167:565.882 - 0.012ms returns 0x00
T2978 5167:565.893 JLINK_WriteReg(R8, 0x00000000)
T2978 5167:565.902 - 0.012ms returns 0x00
T2978 5167:565.914 JLINK_WriteReg(R9, 0x2000017C)
T2978 5167:565.923 - 0.012ms returns 0x00
T2978 5167:565.934 JLINK_WriteReg(R10, 0x00000000)
T2978 5167:565.943 - 0.012ms returns 0x00
T2978 5167:565.954 JLINK_WriteReg(R11, 0x00000000)
T2978 5167:565.962 - 0.013ms returns 0x00
T2978 5167:565.975 JLINK_WriteReg(R12, 0x00000000)
T2978 5167:565.984 - 0.012ms returns 0x00
T2978 5167:565.997 JLINK_WriteReg(R13 (SP), 0x20001000)
T2978 5167:566.006 - 0.013ms returns 0x00
T2978 5167:566.017 JLINK_WriteReg(R14, 0x20000001)
T2978 5167:566.026 - 0.012ms returns 0x00
T2978 5167:566.037 JLINK_WriteReg(R15 (PC), 0x20000108)
T2978 5167:566.045 - 0.013ms returns 0x00
T2978 5167:566.059 JLINK_WriteReg(XPSR, 0x01000000)
T2978 5167:566.070 - 0.015ms returns 0x00
T2978 5167:566.083 JLINK_WriteReg(MSP, 0x20001000)
T2978 5167:566.091 - 0.013ms returns 0x00
T2978 5167:566.102 JLINK_WriteReg(PSP, 0x20001000)
T2978 5167:566.111 - 0.012ms returns 0x00
T2978 5167:566.122 JLINK_WriteReg(CFBP, 0x00000000)
T2978 5167:566.130 - 0.012ms returns 0x00
T2978 5167:566.143   JLINK_SetBPEx(Addr = 0x20000000, Type = 0xFFFFFFF2)
T2978 5167:566.156 - 0.018ms returns 0x00000008
T2978 5167:566.169 JLINK_Go()
T2978 5167:566.188    -- CPU_ReadMem(4 bytes @ 0xE0001000)
T2978 5167:570.754 - 4.618ms
T2978 5167:570.832 JLINK_IsHalted()
T2978 5167:571.595 - 0.783ms returns FALSE
T2978 5167:573.751 JLINK_IsHalted()
T2978 5167:574.620 - 0.890ms returns FALSE
T2978 5167:577.125 JLINK_IsHalted()
T2978 5167:580.890    -- CPU_ReadMem(2 bytes @ 0x20000000)
T2978 5167:581.597 - 4.482ms returns TRUE
T2978 5167:581.643 JLINK_ReadReg(R15 (PC))
T2978 5167:581.658 - 0.019ms returns 0x20000000
T2978 5167:581.670 JLINK_ClrBPEx(BPHandle = 0x00000008)
T2978 5167:581.679 - 0.014ms returns 0x00
T2978 5167:581.691 JLINK_ReadReg(R0)
T2978 5167:581.700 - 0.013ms returns 0x00000000
T2978 5167:582.409 JLINK_WriteMem(0x20000180, 0x0280 Bytes, ...)
T2978 5167:582.423    - Data: 20 60 20 68 40 EA 05 40 20 60 20 68 40 F0 02 00 ...
T2978 5167:582.444    -- CPU_WriteMem(640 bytes @ 0x20000180)
T2978 5167:586.891 - 4.503ms returns 0x280
T2978 5167:586.954 JLINK_WriteMem(0x20000400, 0x0180 Bytes, ...)
T2978 5167:586.966    - Data: FF F7 6E FE 00 90 02 20 00 F0 06 F9 02 21 68 46 ...
T2978 5167:586.993    -- CPU_WriteMem(384 bytes @ 0x20000400)
T2978 5167:589.792 - 2.856ms returns 0x180
T2978 5167:589.858 JLINK_WriteReg(R0, 0x08000800)
T2978 5167:589.874 - 0.021ms returns 0x00
T2978 5167:589.886 JLINK_WriteReg(R1, 0x00000400)
T2978 5167:589.896 - 0.014ms returns 0x00
T2978 5167:589.908 JLINK_WriteReg(R2, 0x20000180)
T2978 5167:589.918 - 0.014ms returns 0x00
T2978 5167:589.929 JLINK_WriteReg(R3, 0x00000000)
T2978 5167:589.938 - 0.013ms returns 0x00
T2978 5167:589.950 JLINK_WriteReg(R4, 0x00000000)
T2978 5167:589.959 - 0.013ms returns 0x00
T2978 5167:589.970 JLINK_WriteReg(R5, 0x00000000)
T2978 5167:589.979 - 0.013ms returns 0x00
T2978 5167:589.990 JLINK_WriteReg(R6, 0x00000000)
T2978 5167:589.999 - 0.013ms returns 0x00
T2978 5167:590.010 JLINK_WriteReg(R7, 0x00000000)
T2978 5167:590.019 - 0.013ms returns 0x00
T2978 5167:590.030 JLINK_WriteReg(R8, 0x00000000)
T2978 5167:590.040 - 0.025ms returns 0x00
T2978 5167:590.068 JLINK_WriteReg(R9, 0x2000017C)
T2978 5167:590.077 - 0.013ms returns 0x00
T2978 5167:590.088 JLINK_WriteReg(R10, 0x00000000)
T2978 5167:590.097 - 0.013ms returns 0x00
T2978 5167:590.108 JLINK_WriteReg(R11, 0x00000000)
T2978 5167:590.117 - 0.013ms returns 0x00
T2978 5167:590.128 JLINK_WriteReg(R12, 0x00000000)
T2978 5167:590.137 - 0.013ms returns 0x00
T2978 5167:590.148 JLINK_WriteReg(R13 (SP), 0x20001000)
T2978 5167:590.158 - 0.014ms returns 0x00
T2978 5167:590.169 JLINK_WriteReg(R14, 0x20000001)
T2978 5167:590.178 - 0.013ms returns 0x00
T2978 5167:590.189 JLINK_WriteReg(R15 (PC), 0x20000108)
T2978 5167:590.199 - 0.013ms returns 0x00
T2978 5167:590.210 JLINK_WriteReg(XPSR, 0x01000000)
T2978 5167:590.219 - 0.013ms returns 0x00
T2978 5167:590.230 JLINK_WriteReg(MSP, 0x20001000)
T2978 5167:590.239 - 0.013ms returns 0x00
T2978 5167:590.250 JLINK_WriteReg(PSP, 0x20001000)
T2978 5167:590.259 - 0.013ms returns 0x00
T2978 5167:590.270 JLINK_WriteReg(CFBP, 0x00000000)
T2978 5167:590.279 - 0.013ms returns 0x00
T2978 5167:590.291   JLINK_SetBPEx(Addr = 0x20000000, Type = 0xFFFFFFF2)
T2978 5167:590.305 - 0.019ms returns 0x00000009
T2978 5167:590.317 JLINK_Go()
T2978 5167:590.344    -- CPU_ReadMem(4 bytes @ 0xE0001000)
T2978 5167:594.310 - 4.023ms
T2978 5167:594.392 JLINK_IsHalted()
T2978 5167:595.007 - 0.628ms returns FALSE
T2978 5167:602.321 JLINK_IsHalted()
T2978 5167:606.418    -- CPU_ReadMem(2 bytes @ 0x20000000)
T2978 5167:607.166 - 4.866ms returns TRUE
T2978 5167:607.231 JLINK_ReadReg(R15 (PC))
T2978 5167:607.246 - 0.020ms returns 0x20000000
T2978 5167:607.259 JLINK_ClrBPEx(BPHandle = 0x00000009)
T2978 5167:607.269 - 0.015ms returns 0x00
T2978 5167:607.282 JLINK_ReadReg(R0)
T2978 5167:607.292 - 0.014ms returns 0x00000000
T2978 5167:608.044 JLINK_WriteMem(0x20000180, 0x0280 Bytes, ...)
T2978 5167:608.063    - Data: F8 83 00 00 0F B4 10 B5 96 B0 19 A8 01 90 02 A8 ...
T2978 5167:608.091    -- CPU_WriteMem(640 bytes @ 0x20000180)
T2978 5167:612.642 - 4.619ms returns 0x280
T2978 5167:612.705 JLINK_WriteMem(0x20000400, 0x0180 Bytes, ...)
T2978 5167:612.717    - Data: 08 60 00 BF 08 46 00 68 40 F4 00 60 08 60 08 46 ...
T2978 5167:612.741    -- CPU_WriteMem(384 bytes @ 0x20000400)
T2978 5167:615.645 - 2.960ms returns 0x180
T2978 5167:615.710 JLINK_WriteReg(R0, 0x08000C00)
T2978 5167:615.725 - 0.020ms returns 0x00
T2978 5167:615.737 JLINK_WriteReg(R1, 0x00000400)
T2978 5167:615.748 - 0.014ms returns 0x00
T2978 5167:615.759 JLINK_WriteReg(R2, 0x20000180)
T2978 5167:615.768 - 0.013ms returns 0x00
T2978 5167:615.779 JLINK_WriteReg(R3, 0x00000000)
T2978 5167:615.789 - 0.013ms returns 0x00
T2978 5167:615.800 JLINK_WriteReg(R4, 0x00000000)
T2978 5167:615.809 - 0.013ms returns 0x00
T2978 5167:615.820 JLINK_WriteReg(R5, 0x00000000)
T2978 5167:615.829 - 0.013ms returns 0x00
T2978 5167:615.840 JLINK_WriteReg(R6, 0x00000000)
T2978 5167:615.849 - 0.013ms returns 0x00
T2978 5167:615.860 JLINK_WriteReg(R7, 0x00000000)
T2978 5167:615.869 - 0.013ms returns 0x00
T2978 5167:615.880 JLINK_WriteReg(R8, 0x00000000)
T2978 5167:615.889 - 0.013ms returns 0x00
T2978 5167:615.900 JLINK_WriteReg(R9, 0x2000017C)
T2978 5167:615.909 - 0.013ms returns 0x00
T2978 5167:615.920 JLINK_WriteReg(R10, 0x00000000)
T2978 5167:615.929 - 0.013ms returns 0x00
T2978 5167:615.940 JLINK_WriteReg(R11, 0x00000000)
T2978 5167:615.949 - 0.013ms returns 0x00
T2978 5167:615.960 JLINK_WriteReg(R12, 0x00000000)
T2978 5167:615.969 - 0.013ms returns 0x00
T2978 5167:615.980 JLINK_WriteReg(R13 (SP), 0x20001000)
T2978 5167:615.990 - 0.014ms returns 0x00
T2978 5167:616.001 JLINK_WriteReg(R14, 0x20000001)
T2978 5167:616.010 - 0.013ms returns 0x00
T2978 5167:616.021 JLINK_WriteReg(R15 (PC), 0x20000108)
T2978 5167:616.030 - 0.013ms returns 0x00
T2978 5167:616.041 JLINK_WriteReg(XPSR, 0x01000000)
T2978 5167:616.050 - 0.013ms returns 0x00
T2978 5167:616.061 JLINK_WriteReg(MSP, 0x20001000)
T2978 5167:616.070 - 0.013ms returns 0x00
T2978 5167:616.081 JLINK_WriteReg(PSP, 0x20001000)
T2978 5167:616.093 - 0.018ms returns 0x00
T2978 5167:616.106 JLINK_WriteReg(CFBP, 0x00000000)
T2978 5167:616.115 - 0.013ms returns 0x00
T2978 5167:616.127   JLINK_SetBPEx(Addr = 0x20000000, Type = 0xFFFFFFF2)
T2978 5167:616.141 - 0.019ms returns 0x0000000A
T2978 5167:616.153 JLINK_Go()
T2978 5167:616.172    -- CPU_ReadMem(4 bytes @ 0xE0001000)
T2978 5167:620.646 - 4.514ms
T2978 5167:620.709 JLINK_IsHalted()
T2978 5167:621.490 - 0.801ms returns FALSE
T2978 5167:623.500 JLINK_IsHalted()
T2978 5167:624.352 - 0.879ms returns FALSE
T2978 5167:626.538 JLINK_IsHalted()
T2978 5167:630.070    -- CPU_ReadMem(2 bytes @ 0x20000000)
T2978 5167:630.643 - 4.123ms returns TRUE
T2978 5167:630.711 JLINK_ReadReg(R15 (PC))
T2978 5167:630.726 - 0.020ms returns 0x20000000
T2978 5167:630.739 JLINK_ClrBPEx(BPHandle = 0x0000000A)
T2978 5167:630.748 - 0.014ms returns 0x00
T2978 5167:630.760 JLINK_ReadReg(R0)
T2978 5167:630.769 - 0.013ms returns 0x00000000
T2978 5167:631.475 JLINK_WriteMem(0x20000180, 0x0280 Bytes, ...)
T2978 5167:631.489    - Data: 10 3C 02 40 23 48 00 68 00 F0 10 00 40 B1 22 48 ...
T2978 5167:631.511    -- CPU_WriteMem(640 bytes @ 0x20000180)
T2978 5167:635.732 - 4.279ms returns 0x280
T2978 5167:635.796 JLINK_WriteMem(0x20000400, 0x0180 Bytes, ...)
T2978 5167:635.808    - Data: 30 B1 06 48 04 49 0C 39 08 60 05 48 08 60 01 E0 ...
T2978 5167:635.833    -- CPU_WriteMem(384 bytes @ 0x20000400)
T2978 5167:638.824 - 3.050ms returns 0x180
T2978 5167:638.899 JLINK_WriteReg(R0, 0x08001000)
T2978 5167:638.925 - 0.031ms returns 0x00
T2978 5167:638.939 JLINK_WriteReg(R1, 0x00000400)
T2978 5167:638.950 - 0.016ms returns 0x00
T2978 5167:638.964 JLINK_WriteReg(R2, 0x20000180)
T2978 5167:638.974 - 0.015ms returns 0x00
T2978 5167:638.986 JLINK_WriteReg(R3, 0x00000000)
T2978 5167:638.996 - 0.014ms returns 0x00
T2978 5167:639.009 JLINK_WriteReg(R4, 0x00000000)
T2978 5167:639.018 - 0.014ms returns 0x00
T2978 5167:639.033 JLINK_WriteReg(R5, 0x00000000)
T2978 5167:639.043 - 0.015ms returns 0x00
T2978 5167:639.056 JLINK_WriteReg(R6, 0x00000000)
T2978 5167:639.066 - 0.015ms returns 0x00
T2978 5167:639.079 JLINK_WriteReg(R7, 0x00000000)
T2978 5167:639.089 - 0.015ms returns 0x00
T2978 5167:639.102 JLINK_WriteReg(R8, 0x00000000)
T2978 5167:639.112 - 0.015ms returns 0x00
T2978 5167:639.124 JLINK_WriteReg(R9, 0x2000017C)
T2978 5167:639.134 - 0.014ms returns 0x00
T2978 5167:639.146 JLINK_WriteReg(R10, 0x00000000)
T2978 5167:639.156 - 0.014ms returns 0x00
T2978 5167:639.169 JLINK_WriteReg(R11, 0x00000000)
T2978 5167:639.179 - 0.014ms returns 0x00
T2978 5167:639.191 JLINK_WriteReg(R12, 0x00000000)
T2978 5167:639.201 - 0.014ms returns 0x00
T2978 5167:639.213 JLINK_WriteReg(R13 (SP), 0x20001000)
T2978 5167:639.226 - 0.017ms returns 0x00
T2978 5167:639.238 JLINK_WriteReg(R14, 0x20000001)
T2978 5167:639.248 - 0.014ms returns 0x00
T2978 5167:639.261 JLINK_WriteReg(R15 (PC), 0x20000108)
T2978 5167:639.271 - 0.015ms returns 0x00
T2978 5167:639.283 JLINK_WriteReg(XPSR, 0x01000000)
T2978 5167:639.293 - 0.014ms returns 0x00
T2978 5167:639.306 JLINK_WriteReg(MSP, 0x20001000)
T2978 5167:639.315 - 0.014ms returns 0x00
T2978 5167:639.328 JLINK_WriteReg(PSP, 0x20001000)
T2978 5167:639.338 - 0.014ms returns 0x00
T2978 5167:639.350 JLINK_WriteReg(CFBP, 0x00000000)
T2978 5167:639.360 - 0.014ms returns 0x00
T2978 5167:639.374   JLINK_SetBPEx(Addr = 0x20000000, Type = 0xFFFFFFF2)
T2978 5167:639.389 - 0.021ms returns 0x0000000B
T2978 5167:639.402 JLINK_Go()
T2978 5167:639.424    -- CPU_ReadMem(4 bytes @ 0xE0001000)
T2978 5167:643.425 - 4.044ms
T2978 5167:643.498 JLINK_IsHalted()
T2978 5167:644.115 - 0.634ms returns FALSE
T2978 5167:648.316 JLINK_IsHalted()
T2978 5167:651.938    -- CPU_ReadMem(2 bytes @ 0x20000000)
T2978 5167:652.606 - 4.307ms returns TRUE
T2978 5167:652.670 JLINK_ReadReg(R15 (PC))
T2978 5167:652.688 - 0.024ms returns 0x20000000
T2978 5167:652.705 JLINK_ClrBPEx(BPHandle = 0x0000000B)
T2978 5167:652.718 - 0.018ms returns 0x00
T2978 5167:652.734 JLINK_ReadReg(R0)
T2978 5167:652.746 - 0.022ms returns 0x00000000
T2978 5167:653.603 JLINK_WriteMem(0x20000180, 0x0280 Bytes, ...)
T2978 5167:653.623    - Data: DE 68 BE 40 30 43 90 60 50 68 01 26 8E 40 B0 43 ...
T2978 5167:653.651    -- CPU_WriteMem(640 bytes @ 0x20000180)
T2978 5167:657.989 - 4.411ms returns 0x280
T2978 5167:658.068 JLINK_WriteMem(0x20000400, 0x0180 Bytes, ...)
T2978 5167:658.085    - Data: 5F FC 07 46 00 25 1A E0 35 E0 05 F0 0F 01 01 20 ...
T2978 5167:658.116    -- CPU_WriteMem(384 bytes @ 0x20000400)
T2978 5167:661.017 - 2.974ms returns 0x180
T2978 5167:661.104 JLINK_WriteReg(R0, 0x08001400)
T2978 5167:661.125 - 0.027ms returns 0x00
T2978 5167:661.141 JLINK_WriteReg(R1, 0x00000400)
T2978 5167:661.154 - 0.019ms returns 0x00
T2978 5167:661.169 JLINK_WriteReg(R2, 0x20000180)
T2978 5167:661.182 - 0.018ms returns 0x00
T2978 5167:661.197 JLINK_WriteReg(R3, 0x00000000)
T2978 5167:661.209 - 0.018ms returns 0x00
T2978 5167:661.224 JLINK_WriteReg(R4, 0x00000000)
T2978 5167:661.236 - 0.017ms returns 0x00
T2978 5167:661.251 JLINK_WriteReg(R5, 0x00000000)
T2978 5167:661.263 - 0.017ms returns 0x00
T2978 5167:661.278 JLINK_WriteReg(R6, 0x00000000)
T2978 5167:661.290 - 0.018ms returns 0x00
T2978 5167:661.306 JLINK_WriteReg(R7, 0x00000000)
T2978 5167:661.317 - 0.017ms returns 0x00
T2978 5167:661.332 JLINK_WriteReg(R8, 0x00000000)
T2978 5167:661.344 - 0.017ms returns 0x00
T2978 5167:661.359 JLINK_WriteReg(R9, 0x2000017C)
T2978 5167:661.371 - 0.017ms returns 0x00
T2978 5167:661.386 JLINK_WriteReg(R10, 0x00000000)
T2978 5167:661.398 - 0.017ms returns 0x00
T2978 5167:661.413 JLINK_WriteReg(R11, 0x00000000)
T2978 5167:661.424 - 0.017ms returns 0x00
T2978 5167:661.439 JLINK_WriteReg(R12, 0x00000000)
T2978 5167:661.451 - 0.017ms returns 0x00
T2978 5167:661.466 JLINK_WriteReg(R13 (SP), 0x20001000)
T2978 5167:661.479 - 0.018ms returns 0x00
